
T182C 000:555 SEGGER J-Link V4.40c Log File (0001ms, 0553ms total)
T182C 000:555 DLL Compiled: Jan 24 2012 09:30:33 (0001ms, 0553ms total)
T182C 000:555 Logging started @ 2012-07-06 14:15 (0001ms, 0553ms total)
T182C 000:556 JLINK_SetWarnOutHandler(...) (0000ms, 0554ms total)
T182C 000:556 JLINK_OpenEx(...)
Firmware: J-Link ARM-OB STM32 compiled Dec 15 2010 11:30:03
Hardware: V7.00
S/N: 20090928
Feature(s): RDI,FlashDL,FlashBP,JFlash,GDBFull  returns O.K. (0291ms, 0554ms total)
T182C 000:847 JLINK_SetErrorOutHandler(...) (0000ms, 0845ms total)
T182C 000:848 JLINK_ExecCommand("Device = STM32F407VG", ...)
                JLINK_ExecCommand("map ram 0x20000000 - 0x2001FFFF", ...)  returns 0x00 (0000ms, 0000ms total)
                JLINK_AddMirrorAreaEx(Addr = 0x00000000, Size = 0x00000000) (0000ms, 0000ms total)
              Device "STM32F407VG" selected (1024 KB flash, 128 KB RAM).  returns 0x00 (0009ms, 0845ms total)
T182C 000:861 JLINK_ExecCommand("ProjectFile = "F:\资料整理\我的历程\STM32\F407\F407VG\ucOSII+emwin移植\Project\JLinkSettings.ini"", ...)  returns 0x00 (0000ms, 0854ms total)
T182C 000:868 JLINK_ExecCommand("DisableConnectionTimeout", ...)  returns 0x00 (0000ms, 0854ms total)
T182C 000:868 JLINK_TIF_Select(JLINKARM_TIF_JTAG)  returns 0x00 (0000ms, 0854ms total)
T182C 000:868 JLINK_SetSpeed(2000) (0001ms, 0854ms total)
T182C 000:869 JLINK_GetHardwareVersion()  returns 0x11170 (0000ms, 0855ms total)
T182C 000:869 JLINK_GetDLLVersion()  returns 44003 (0000ms, 0855ms total)
T182C 000:869 JLINK_GetFirmwareString(...) (0000ms, 0855ms total)
T182C 000:880 JLINK_GetDLLVersion()  returns 44003 (0000ms, 0855ms total)
T182C 000:880 JLINK_GetCompileDateTime() (0000ms, 0855ms total)
T182C 000:884 JLINK_GetFirmwareString(...) (0000ms, 0855ms total)
T182C 000:887 JLINK_GetHardwareVersion()  returns 0x11170 (0000ms, 0855ms total)
T182C 000:898 JLINK_GetIdData(...) >0x2F8 JTAG>TotalIRLen = 9, IRPrint = 0x0011 >0x30 JTAG> >0x210 JTAG> >0x80 JTAG> >0x40 JTAG> >0x40 JTAG> >0x50 JTAG> >0x40 JTAG> >0x40 JTAG> >0x40 JTAG> >0x50 JTAG> >0x40 JTAG> >0x50 JTAG> >0x40 JTAG> >0x40 JTAG> >0x40 JTAG> >0x30 JTAG> >0x40 JTAG> >0x50 JTAG> >0x40 JTAG> >0x38 JTAG> >0x80 JTAG> >0x40 JTAG> >0x40 JTAG> >0x50 JTAG> >0x40 JTAG> >0x40 JTAG> >0x40 JTAG> >0x50 JTAG> >0x40 JTAG> >0x40 JTAG> >0x30 JTAG> >0x40 JTAG> >0x40 JTAG> >0x40 JTAG> >0x40 JTAG>
 >0x40 JTAG> >0x50 JTAG> >0x40 JTAG> >0x80 JTAG> >0x40 JTAG> >0x30 JTAG> >0x40 JTAG> >0x40 JTAG> >0x40 JTAG> >0x40 JTAG> >0x40 JTAG> >0x50 JTAG> >0x40 JTAG> >0x80 JTAG> >0x40 JTAG> >0x30 JTAG> >0x40 JTAG> >0x50 JTAG> >0x40 JTAG> >0x40 JTAG> >0x40 JTAG> >0x30 JTAG> >0x40 JTAG> >0x50 JTAG> >0x40 JTAG>Found Cortex-M4 r0p1, Little endian. >0x50 JTAG> >0x50 JTAG> >0x40 JTAG> >0x40 JTAG> >0x30 JTAG> >0x30 JTAG> >0x50 JTAG> >0x40 JTAG> >0x80 JTAG> >0x40 JTAG> >0x30 JTAG> >0x40 JTAG> >0x50 JTAG> >0x40 JTAG>
 >0x40 JTAG> >0x40 JTAG> >0x30 JTAG> >0x40 JTAG> >0x50 JTAG> >0x40 JTAG>TPIU fitted. >0x40 JTAG> >0x40 JTAG> >0x30 JTAG> >0x40 JTAG> >0x50 JTAG> >0x40 JTAG>ETM fitted. >0x40 JTAG> >0x40 JTAG> >0x30 JTAG> >0x40 JTAG> >0x50 JTAG> >0x40 JTAG> >0x40 JTAG> >0x40 JTAG> >0x30 JTAG> >0x40 JTAG> >0x50 JTAG> >0x40 JTAG>  FPUnit: 6 code (BP) slots and 2 literal slots >0x40 JTAG> >0x40 JTAG> >0x30 JTAG> >0x40 JTAG> >0x50 JTAG> >0x40 JTAG> >0x40 JTAG> >0x40 JTAG> >0x30 JTAG> >0x40 JTAG> >0x50 JTAG> >0x40 JTAG>
 ScanLen=9 NumDevices=2 aId[0]=0x4BA00477 aIrRead[0]=0 aScanLen[0]=0 aScanRead[0]=0 (0137ms, 0855ms total)
T182C 001:036 JLINK_JTAG_GetDeviceID(DeviceIndex = 0)  returns 0x4BA00477 (0000ms, 0992ms total)
T182C 001:036 JLINK_JTAG_GetDeviceInfo(DeviceIndex = 0)  returns 0x00 (0000ms, 0992ms total)
T182C 001:036 JLINK_JTAG_GetDeviceID(DeviceIndex = 1)  returns 0x6413041 (0000ms, 0992ms total)
T182C 001:036 JLINK_JTAG_GetDeviceInfo(DeviceIndex = 1)  returns 0x00 (0000ms, 0992ms total)
T182C 001:036 JLINK_GetDebugInfo(0x100) -- Value=0xE00FF003  returns 0x00 (0001ms, 0992ms total)
T182C 001:039 JLINK_ReadMem (0xE00FFFF0, 0x0010 Bytes, ...) -- CPU is running >0x2B0 JTAG> -- Data:  0D 00 00 00 10 00 00 00 05 00 00 00 B1 00 00 00  returns 0x00 (0003ms, 0993ms total)
T182C 001:042 JLINK_ReadMem (0xE00FFFD0, 0x0020 Bytes, ...) -- CPU is running >0x398 JTAG> -- Data:  00 00 00 00 00 00 00 00 00 00 00 00 00 00 00 00 ...  returns 0x00 (0003ms, 0996ms total)
T182C 001:045 JLINK_ReadMem (0xE00FF000, 0x0018 Bytes, ...) -- CPU is running >0x320 JTAG> -- Data:  03 F0 F0 FF 03 20 F0 FF 03 30 F0 FF 03 10 F0 FF ...  returns 0x00 (0002ms, 0999ms total)
T182C 001:047 JLINK_ReadMemU32(0xE000ED00, 0x0001 Items, ...) -- CPU is running >0x1F0 JTAG> -- Data:  41 C2 0F 41  returns 0x01 (0002ms, 1001ms total)
T182C 001:049 JLINK_ReadMemU32(0xE000EF40, 0x0001 Items, ...) -- CPU is running >0x1F0 JTAG> -- Data:  21 00 11 10  returns 0x01 (0002ms, 1003ms total)
T182C 001:051 JLINK_ReadMemU32(0xE000EF44, 0x0001 Items, ...) -- CPU is running >0x1F0 JTAG> -- Data:  11 00 00 11  returns 0x01 (0002ms, 1005ms total)
T182C 001:053 JLINK_SetResetType(JLINKARM_RESET_TYPE_NORMAL)  returns JLINKARM_RESET_TYPE_NORMAL (0000ms, 1007ms total)
T182C 001:053 JLINK_Reset() >0x2F8 JTAG>TotalIRLen = 9, IRPrint = 0x0011 >0x30 JTAG> >0x210 JTAG> >0x80 JTAG> >0x40 JTAG> >0x40 JTAG> >0x50 JTAG> >0x40 JTAG> >0x40 JTAG> >0x40 JTAG> >0x50 JTAG> >0x40 JTAG> >0x50 JTAG> >0x40 JTAG> >0x40 JTAG> >0x40 JTAG> >0x30 JTAG> >0x40 JTAG> >0x50 JTAG> >0x40 JTAG> >0x38 JTAG> >0x80 JTAG> >0x40 JTAG> >0x40 JTAG> >0x50 JTAG> >0x40 JTAG> >0x40 JTAG> >0x40 JTAG> >0x50 JTAG> >0x40 JTAG> >0x40 JTAG> >0x30 JTAG> >0x40 JTAG> >0x40 JTAG> >0x40 JTAG> >0x40 JTAG> >0x40 JTAG>
 >0x50 JTAG> >0x40 JTAG> >0x80 JTAG> >0x40 JTAG> >0x30 JTAG> >0x40 JTAG> >0x40 JTAG> >0x40 JTAG> >0x40 JTAG> >0x40 JTAG> >0x50 JTAG> >0x40 JTAG> >0x80 JTAG> >0x40 JTAG> >0x30 JTAG> >0x40 JTAG> >0x50 JTAG> >0x40 JTAG> >0x40 JTAG> >0x40 JTAG> >0x30 JTAG> >0x40 JTAG> >0x50 JTAG> >0x40 JTAG>Found Cortex-M4 r0p1, Little endian. >0x50 JTAG> >0x50 JTAG> >0x40 JTAG> >0x40 JTAG> >0x30 JTAG> >0x30 JTAG> >0x50 JTAG> >0x40 JTAG> >0x80 JTAG> >0x40 JTAG> >0x30 JTAG> >0x40 JTAG> >0x50 JTAG> >0x40 JTAG> >0x40 JTAG>
 >0x40 JTAG> >0x30 JTAG> >0x40 JTAG> >0x50 JTAG> >0x40 JTAG>TPIU fitted. >0x40 JTAG> >0x40 JTAG> >0x30 JTAG> >0x40 JTAG> >0x50 JTAG> >0x40 JTAG>ETM fitted. >0x40 JTAG> >0x40 JTAG> >0x30 JTAG> >0x40 JTAG> >0x50 JTAG> >0x40 JTAG> >0x40 JTAG> >0x40 JTAG> >0x30 JTAG> >0x40 JTAG> >0x50 JTAG> >0x40 JTAG>  FPUnit: 6 code (BP) slots and 2 literal slots >0x40 JTAG> >0x40 JTAG> >0x30 JTAG> >0x40 JTAG> >0x50 JTAG> >0x40 JTAG> >0x40 JTAG> >0x40 JTAG> >0x30 JTAG> >0x40 JTAG> >0x50 JTAG> >0x40 JTAG> >0x48 JTAG>
 >0x80 JTAG> >0x40 JTAG> >0x40 JTAG> >0x50 JTAG> >0x40 JTAG> >0x40 JTAG> >0x40 JTAG> >0x50 JTAG> >0x40 JTAG> >0x40 JTAG> >0x30 JTAG> >0x40 JTAG> >0x40 JTAG> >0x40 JTAG> >0x40 JTAG> >0x40 JTAG> >0x50 JTAG> >0x40 JTAG> >0x80 JTAG> >0x40 JTAG> >0x30 JTAG> >0x40 JTAG> >0x40 JTAG> >0x40 JTAG> >0x40 JTAG> >0x40 JTAG> >0x50 JTAG> >0x40 JTAG> >0x80 JTAG> >0x40 JTAG> >0x30 JTAG> >0x40 JTAG> >0x50 JTAG> >0x40 JTAG> >0x40 JTAG> >0x40 JTAG> >0x30 JTAG> >0x40 JTAG> >0x50 JTAG> >0x40 JTAG>
Found Cortex-M4 r0p1, Little endian. >0x50 JTAG> >0x50 JTAG> >0x40 JTAG> >0x40 JTAG> >0x30 JTAG> >0x30 JTAG> >0x50 JTAG> >0x40 JTAG> >0x80 JTAG> >0x40 JTAG> >0x30 JTAG> >0x40 JTAG> >0x50 JTAG> >0x40 JTAG> >0x40 JTAG> >0x40 JTAG> >0x30 JTAG> >0x40 JTAG> >0x50 JTAG> >0x40 JTAG>TPIU fitted. >0x40 JTAG> >0x40 JTAG> >0x30 JTAG> >0x40 JTAG> >0x50 JTAG> >0x40 JTAG>ETM fitted. >0x40 JTAG> >0x40 JTAG> >0x30 JTAG> >0x40 JTAG> >0x50 JTAG> >0x40 JTAG> >0x40 JTAG> >0x40 JTAG> >0x30 JTAG> >0x40 JTAG> >0x50 JTAG>
 >0x40 JTAG>  FPUnit: 6 code (BP) slots and 2 literal slots >0x40 JTAG> >0x40 JTAG> >0x30 JTAG> >0x40 JTAG> >0x50 JTAG> >0x40 JTAG> >0x40 JTAG> >0x40 JTAG> >0x30 JTAG> >0x40 JTAG> >0x50 JTAG> >0x40 JTAG> -- CPU is running >0x200 JTAG> -- CPU is running >0x1F0 JTAG> -- CPU is running >0x230 JTAG> -- CPU is running >0x1F0 JTAG> -- CPU is running >0x1F0 JTAG> -- CPU is running >0x1F0 JTAG> -- CPU is running >0x1F0 JTAG> -- CPU is running >0x1F0 JTAG> >0x198 JTAG> >0x17A8 JTAG> >0x40 JTAG> >0x40 JTAG>
 >0x30 JTAG> >0x40 JTAG> >0x50 JTAG> >0x40 JTAG> >0x1F0 JTAG> >0x1F0 JTAG> >0x1F0 JTAG> >0x1F0 JTAG> >0x1F0 JTAG> (0301ms, 1007ms total)
T182C 001:354 JLINK_Halt()  returns 0x00 (0000ms, 1308ms total)
T182C 001:354 JLINK_IsHalted()  returns TRUE (0000ms, 1308ms total)
T182C 001:354 JLINK_ReadMemU32(0xE000EDF0, 0x0001 Items, ...) >0x1F0 JTAG> -- Data:  03 00 03 00  returns 0x01 (0002ms, 1308ms total)
T182C 001:356 JLINK_WriteU32(0xE000EDF0, 0xA05F0003) >0x1F0 JTAG>  returns 0x00 (0002ms, 1310ms total)
T182C 001:358 JLINK_WriteU32(0xE000EDFC, 0x01000000) >0x1F0 JTAG>  returns 0x00 (0002ms, 1312ms total)
T182C 001:371 JLINK_GetHWStatus(...)  returns 0x00 (0001ms, 1314ms total)
T182C 001:381 JLINK_GetNumBPUnits(Type = 0xFFFFFF00)  returns 0x06 (0000ms, 1315ms total)
T182C 001:381 JLINK_GetNumBPUnits(Type = 0xF0)  returns 0x2000 (0000ms, 1315ms total)
T182C 001:381 JLINK_GetNumWPUnits()  returns 0x04 (0000ms, 1315ms total)
T182C 001:390 JLINK_GetSpeed()  returns 0x7D0 (0000ms, 1315ms total)
T182C 001:399 JLINK_ReadMemU32(0xE000E004, 0x0001 Items, ...) >0x1F0 JTAG> -- Data:  02 00 00 00  returns 0x01 (0002ms, 1315ms total)
T182C 001:401 JLINK_ReadMemU32(0xE000E004, 0x0001 Items, ...) >0x1F0 JTAG> -- Data:  02 00 00 00  returns 0x01 (0002ms, 1317ms total)
T182C 001:403 JLINK_WriteMem(0xE0001000, 0x001C Bytes, ...) -- Data:  01 00 00 00 00 00 00 00 00 00 00 00 00 00 00 00 ... >0x310 JTAG>  returns 0x1C (0002ms, 1319ms total)
T182C 001:405 JLINK_ReadMem (0xE0001000, 0x001C Bytes, ...) >0x358 JTAG> -- Data:  01 00 00 40 00 00 00 00 00 00 00 00 00 00 00 00 ...  returns 0x00 (0002ms, 1321ms total)
T182C 001:407 JLINK_Halt()  returns 0x00 (0000ms, 1323ms total)
T182C 001:407 JLINK_IsHalted()  returns TRUE (0000ms, 1323ms total)
T182C 001:411 JLINK_WriteMem(0x20000000, 0x0180 Bytes, ...) -- Data:  00 BE 0A E0 0D 78 2D 06 68 40 08 24 40 00 00 D3 ... >0x13C0 JTAG>  returns 0x180 (0009ms, 1323ms total)
T182C 001:420 JLINK_WriteReg(R0, 0x08000000)  returns 0x00 (0000ms, 1332ms total)
T182C 001:420 JLINK_WriteReg(R1, 0x017D7840)  returns 0x00 (0000ms, 1332ms total)
T182C 001:420 JLINK_WriteReg(R2, 0x00000001)  returns 0x00 (0000ms, 1332ms total)
T182C 001:420 JLINK_WriteReg(R3, 0x00000000)  returns 0x00 (0000ms, 1332ms total)
T182C 001:420 JLINK_WriteReg(R4, 0x00000000)  returns 0x00 (0000ms, 1332ms total)
T182C 001:420 JLINK_WriteReg(R5, 0x00000000)  returns 0x00 (0000ms, 1332ms total)
T182C 001:420 JLINK_WriteReg(R6, 0x00000000)  returns 0x00 (0000ms, 1332ms total)
T182C 001:420 JLINK_WriteReg(R7, 0x00000000)  returns 0x00 (0000ms, 1332ms total)
T182C 001:420 JLINK_WriteReg(R8, 0x00000000)  returns 0x00 (0000ms, 1332ms total)
T182C 001:420 JLINK_WriteReg(R9, 0x2000017C)  returns 0x00 (0000ms, 1332ms total)
T182C 001:420 JLINK_WriteReg(R10, 0x00000000)  returns 0x00 (0000ms, 1332ms total)
T182C 001:420 JLINK_WriteReg(R11, 0x00000000)  returns 0x00 (0000ms, 1332ms total)
T182C 001:420 JLINK_WriteReg(R12, 0x00000000)  returns 0x00 (0000ms, 1332ms total)
T182C 001:420 JLINK_WriteReg(R13, 0x20000800)  returns 0x00 (0001ms, 1332ms total)
T182C 001:421 JLINK_WriteReg(R14, 0x20000001)  returns 0x00 (0000ms, 1333ms total)
T182C 001:421 JLINK_WriteReg(R15, 0x20000054)  returns 0x00 (0000ms, 1333ms total)
T182C 001:421 JLINK_WriteReg(XPSR, 0x01000000)  returns 0x00 (0000ms, 1333ms total)
T182C 001:421 JLINK_WriteReg(MSP, 0x20000800)  returns 0x00 (0000ms, 1333ms total)
T182C 001:421 JLINK_WriteReg(PSP, 0x20000800)  returns 0x00 (0000ms, 1333ms total)
T182C 001:421 JLINK_WriteReg(CFBP, 0x00000000)  returns 0x00 (0000ms, 1333ms total)
T182C 001:421 JLINK_SetBPEx(Addr = 0x20000000, Type = 0xFFFFFFF2) >0x1F0 JTAG>  returns 0x00000001 (0002ms, 1333ms total)
T182C 001:423 JLINK_Go() >0x1F0 JTAG> >0x1F0 JTAG> >0x1F0 JTAG> >0x1F0 JTAG> >0x1F0 JTAG> >0x1F0 JTAG> >0x1F0 JTAG> >0x310 JTAG> >0x218 JTAG> >0x218 JTAG> >0x218 JTAG> >0x218 JTAG> >0x218 JTAG> >0x218 JTAG> >0x218 JTAG> >0x240 JTAG> >0x240 JTAG> (0041ms, 1335ms total)
T182C 001:464 JLINK_IsHalted() >0x198 JTAG> >0x17A8 JTAG> >0x1F0 JTAG>  returns TRUE (0016ms, 1376ms total)
T182C 001:480 JLINK_ReadReg(R15)  returns 0x20000000 (0000ms, 1376ms total)
T182C 001:480 JLINK_ClrBPEx(BPHandle = 0x00000001)  returns 0x00 (0000ms, 1376ms total)
T182C 001:480 JLINK_ReadReg(R0)  returns 0x00000000 (0000ms, 1376ms total)
T182C 001:483 JLINK_WriteReg(R0, 0x08000000)  returns 0x00 (0000ms, 1376ms total)
T182C 001:483 JLINK_WriteReg(R1, 0x00004000)  returns 0x00 (0000ms, 1376ms total)
T182C 001:483 JLINK_WriteReg(R2, 0x000000FF)  returns 0x00 (0000ms, 1376ms total)
T182C 001:483 JLINK_WriteReg(R3, 0x00000000)  returns 0x00 (0000ms, 1376ms total)
T182C 001:483 JLINK_WriteReg(R4, 0x00000000)  returns 0x00 (0000ms, 1376ms total)
T182C 001:483 JLINK_WriteReg(R5, 0x00000000)  returns 0x00 (0000ms, 1376ms total)
T182C 001:483 JLINK_WriteReg(R6, 0x00000000)  returns 0x00 (0000ms, 1376ms total)
T182C 001:483 JLINK_WriteReg(R7, 0x00000000)  returns 0x00 (0000ms, 1376ms total)
T182C 001:483 JLINK_WriteReg(R8, 0x00000000)  returns 0x00 (0000ms, 1376ms total)
T182C 001:483 JLINK_WriteReg(R9, 0x2000017C)  returns 0x00 (0000ms, 1376ms total)
T182C 001:483 JLINK_WriteReg(R10, 0x00000000)  returns 0x00 (0000ms, 1376ms total)
T182C 001:483 JLINK_WriteReg(R11, 0x00000000)  returns 0x00 (0000ms, 1376ms total)
T182C 001:483 JLINK_WriteReg(R12, 0x00000000)  returns 0x00 (0000ms, 1376ms total)
T182C 001:483 JLINK_WriteReg(R13, 0x20000800)  returns 0x00 (0000ms, 1376ms total)
T182C 001:483 JLINK_WriteReg(R14, 0x20000001)  returns 0x00 (0000ms, 1376ms total)
T182C 001:483 JLINK_WriteReg(R15, 0x20000020)  returns 0x00 (0000ms, 1376ms total)
T182C 001:483 JLINK_WriteReg(XPSR, 0x01000000)  returns 0x00 (0000ms, 1376ms total)
T182C 001:483 JLINK_WriteReg(MSP, 0x20000800)  returns 0x00 (0000ms, 1376ms total)
T182C 001:483 JLINK_WriteReg(PSP, 0x20000800)  returns 0x00 (0000ms, 1376ms total)
T182C 001:483 JLINK_WriteReg(CFBP, 0x00000000)  returns 0x00 (0000ms, 1376ms total)
T182C 001:483 JLINK_SetBPEx(Addr = 0x20000000, Type = 0xFFFFFFF2)  returns 0x00000002 (0000ms, 1376ms total)
T182C 001:483 JLINK_Go() >0x1F0 JTAG> >0x1F0 JTAG> >0x1F0 JTAG> >0x1F0 JTAG> >0x1F0 JTAG> >0x1F0 JTAG> >0x310 JTAG> >0x218 JTAG> >0x218 JTAG> >0x218 JTAG> >0x218 JTAG> >0x240 JTAG> >0x240 JTAG> (0026ms, 1376ms total)
T182C 001:509 JLINK_IsHalted() >0x198 JTAG> >0x17A8 JTAG> >0x1F0 JTAG>  returns TRUE (0015ms, 1402ms total)
T182C 001:524 JLINK_ReadReg(R15)  returns 0x20000000 (0000ms, 1402ms total)
T182C 001:524 JLINK_ClrBPEx(BPHandle = 0x00000002)  returns 0x00 (0000ms, 1402ms total)
T182C 001:524 JLINK_ReadReg(R0)  returns 0x00000001 (0000ms, 1402ms total)
T182C 001:524 JLINK_WriteReg(R0, 0x08000000)  returns 0x00 (0000ms, 1402ms total)
T182C 001:524 JLINK_WriteReg(R1, 0x00004000)  returns 0x00 (0000ms, 1402ms total)
T182C 001:524 JLINK_WriteReg(R2, 0x000000FF)  returns 0x00 (0000ms, 1402ms total)
T182C 001:524 JLINK_WriteReg(R3, 0x00000000)  returns 0x00 (0000ms, 1402ms total)
T182C 001:524 JLINK_WriteReg(R4, 0x00000000)  returns 0x00 (0000ms, 1402ms total)
T182C 001:524 JLINK_WriteReg(R5, 0x00000000)  returns 0x00 (0000ms, 1402ms total)
T182C 001:524 JLINK_WriteReg(R6, 0x00000000)  returns 0x00 (0000ms, 1402ms total)
T182C 001:524 JLINK_WriteReg(R7, 0x00000000)  returns 0x00 (0000ms, 1402ms total)
T182C 001:524 JLINK_WriteReg(R8, 0x00000000)  returns 0x00 (0000ms, 1402ms total)
T182C 001:524 JLINK_WriteReg(R9, 0x2000017C)  returns 0x00 (0000ms, 1402ms total)
T182C 001:524 JLINK_WriteReg(R10, 0x00000000)  returns 0x00 (0000ms, 1402ms total)
T182C 001:524 JLINK_WriteReg(R11, 0x00000000)  returns 0x00 (0000ms, 1402ms total)
T182C 001:524 JLINK_WriteReg(R12, 0x00000000)  returns 0x00 (0000ms, 1402ms total)
T182C 001:524 JLINK_WriteReg(R13, 0x20000800)  returns 0x00 (0000ms, 1402ms total)
T182C 001:524 JLINK_WriteReg(R14, 0x20000001)  returns 0x00 (0000ms, 1402ms total)
T182C 001:524 JLINK_WriteReg(R15, 0x200000BC)  returns 0x00 (0000ms, 1402ms total)
T182C 001:524 JLINK_WriteReg(XPSR, 0x01000000)  returns 0x00 (0000ms, 1402ms total)
T182C 001:524 JLINK_WriteReg(MSP, 0x20000800)  returns 0x00 (0000ms, 1402ms total)
T182C 001:524 JLINK_WriteReg(PSP, 0x20000800)  returns 0x00 (0000ms, 1402ms total)
T182C 001:524 JLINK_WriteReg(CFBP, 0x00000000)  returns 0x00 (0000ms, 1402ms total)
T182C 001:524 JLINK_SetBPEx(Addr = 0x20000000, Type = 0xFFFFFFF2)  returns 0x00000003 (0000ms, 1402ms total)
T182C 001:524 JLINK_Go() >0x1F0 JTAG> >0x1F0 JTAG> >0x1F0 JTAG> >0x1F0 JTAG> >0x1F0 JTAG> >0x1F0 JTAG> >0x310 JTAG> >0x218 JTAG> >0x218 JTAG> >0x218 JTAG> >0x240 JTAG> >0x240 JTAG> (0025ms, 1402ms total)
T182C 001:549 JLINK_IsHalted() >0x198 JTAG>  returns FALSE (0002ms, 1427ms total)
T182C 001:601 JLINK_IsHalted() >0x198 JTAG>  returns FALSE (0001ms, 1427ms total)
T182C 001:652 JLINK_IsHalted() >0x198 JTAG>  returns FALSE (0001ms, 1427ms total)
T182C 001:703 JLINK_IsHalted() >0x198 JTAG>  returns FALSE (0001ms, 1427ms total)
T182C 001:754 JLINK_IsHalted() >0x198 JTAG>  returns FALSE (0001ms, 1427ms total)
T182C 001:805 JLINK_IsHalted() >0x198 JTAG>  returns FALSE (0001ms, 1427ms total)
T182C 001:856 JLINK_IsHalted() >0x198 JTAG>  returns FALSE (0002ms, 1427ms total)
T182C 001:908 JLINK_IsHalted() >0x198 JTAG>  returns FALSE (0001ms, 1427ms total)
T182C 001:959 JLINK_IsHalted() >0x198 JTAG> >0x17A8 JTAG> >0x1F0 JTAG>  returns TRUE (0014ms, 1427ms total)
T182C 001:973 JLINK_ReadReg(R15)  returns 0x20000000 (0000ms, 1427ms total)
T182C 001:973 JLINK_ClrBPEx(BPHandle = 0x00000003)  returns 0x00 (0000ms, 1427ms total)
T182C 001:973 JLINK_ReadReg(R0)  returns 0x00000000 (0000ms, 1427ms total)
T182C 001:973 JLINK_WriteReg(R0, 0x08004000)  returns 0x00 (0000ms, 1427ms total)
T182C 001:973 JLINK_WriteReg(R1, 0x00004000)  returns 0x00 (0000ms, 1427ms total)
T182C 001:973 JLINK_WriteReg(R2, 0x000000FF)  returns 0x00 (0000ms, 1427ms total)
T182C 001:973 JLINK_WriteReg(R3, 0x00000000)  returns 0x00 (0000ms, 1427ms total)
T182C 001:973 JLINK_WriteReg(R4, 0x00000000)  returns 0x00 (0000ms, 1427ms total)
T182C 001:973 JLINK_WriteReg(R5, 0x00000000)  returns 0x00 (0000ms, 1427ms total)
T182C 001:973 JLINK_WriteReg(R6, 0x00000000)  returns 0x00 (0000ms, 1427ms total)
T182C 001:973 JLINK_WriteReg(R7, 0x00000000)  returns 0x00 (0001ms, 1427ms total)
T182C 001:974 JLINK_WriteReg(R8, 0x00000000)  returns 0x00 (0000ms, 1428ms total)
T182C 001:974 JLINK_WriteReg(R9, 0x2000017C)  returns 0x00 (0000ms, 1428ms total)
T182C 001:974 JLINK_WriteReg(R10, 0x00000000)  returns 0x00 (0000ms, 1428ms total)
T182C 001:974 JLINK_WriteReg(R11, 0x00000000)  returns 0x00 (0000ms, 1428ms total)
T182C 001:974 JLINK_WriteReg(R12, 0x00000000)  returns 0x00 (0000ms, 1428ms total)
T182C 001:974 JLINK_WriteReg(R13, 0x20000800)  returns 0x00 (0000ms, 1428ms total)
T182C 001:974 JLINK_WriteReg(R14, 0x20000001)  returns 0x00 (0000ms, 1428ms total)
T182C 001:974 JLINK_WriteReg(R15, 0x20000020)  returns 0x00 (0000ms, 1428ms total)
T182C 001:974 JLINK_WriteReg(XPSR, 0x01000000)  returns 0x00 (0000ms, 1428ms total)
T182C 001:974 JLINK_WriteReg(MSP, 0x20000800)  returns 0x00 (0000ms, 1428ms total)
T182C 001:974 JLINK_WriteReg(PSP, 0x20000800)  returns 0x00 (0000ms, 1428ms total)
T182C 001:974 JLINK_WriteReg(CFBP, 0x00000000)  returns 0x00 (0000ms, 1428ms total)
T182C 001:974 JLINK_SetBPEx(Addr = 0x20000000, Type = 0xFFFFFFF2)  returns 0x00000004 (0000ms, 1428ms total)
T182C 001:974 JLINK_Go() >0x1F0 JTAG> >0x1F0 JTAG> >0x1F0 JTAG> >0x1F0 JTAG> >0x1F0 JTAG> >0x1F0 JTAG> >0x310 JTAG> >0x218 JTAG> >0x218 JTAG> >0x218 JTAG> >0x218 JTAG> >0x218 JTAG> >0x218 JTAG> >0x240 JTAG> >0x240 JTAG> (0031ms, 1428ms total)
T182C 002:005 JLINK_IsHalted() >0x198 JTAG> >0x17A8 JTAG> >0x1F0 JTAG>  returns TRUE (0015ms, 1459ms total)
T182C 002:021 JLINK_ReadReg(R15)  returns 0x20000000 (0000ms, 1459ms total)
T182C 002:021 JLINK_ClrBPEx(BPHandle = 0x00000004)  returns 0x00 (0000ms, 1459ms total)
T182C 002:021 JLINK_ReadReg(R0)  returns 0x00000001 (0000ms, 1459ms total)
T182C 002:021 JLINK_WriteReg(R0, 0x08004000)  returns 0x00 (0000ms, 1459ms total)
T182C 002:021 JLINK_WriteReg(R1, 0x00004000)  returns 0x00 (0000ms, 1459ms total)
T182C 002:021 JLINK_WriteReg(R2, 0x000000FF)  returns 0x00 (0000ms, 1459ms total)
T182C 002:021 JLINK_WriteReg(R3, 0x00000000)  returns 0x00 (0000ms, 1459ms total)
T182C 002:021 JLINK_WriteReg(R4, 0x00000000)  returns 0x00 (0000ms, 1459ms total)
T182C 002:021 JLINK_WriteReg(R5, 0x00000000)  returns 0x00 (0000ms, 1459ms total)
T182C 002:021 JLINK_WriteReg(R6, 0x00000000)  returns 0x00 (0000ms, 1459ms total)
T182C 002:021 JLINK_WriteReg(R7, 0x00000000)  returns 0x00 (0000ms, 1459ms total)
T182C 002:021 JLINK_WriteReg(R8, 0x00000000)  returns 0x00 (0000ms, 1459ms total)
T182C 002:021 JLINK_WriteReg(R9, 0x2000017C)  returns 0x00 (0000ms, 1459ms total)
T182C 002:021 JLINK_WriteReg(R10, 0x00000000)  returns 0x00 (0000ms, 1459ms total)
T182C 002:021 JLINK_WriteReg(R11, 0x00000000)  returns 0x00 (0000ms, 1459ms total)
T182C 002:021 JLINK_WriteReg(R12, 0x00000000)  returns 0x00 (0000ms, 1459ms total)
T182C 002:021 JLINK_WriteReg(R13, 0x20000800)  returns 0x00 (0000ms, 1459ms total)
T182C 002:021 JLINK_WriteReg(R14, 0x20000001)  returns 0x00 (0000ms, 1459ms total)
T182C 002:021 JLINK_WriteReg(R15, 0x200000BC)  returns 0x00 (0000ms, 1459ms total)
T182C 002:021 JLINK_WriteReg(XPSR, 0x01000000)  returns 0x00 (0000ms, 1459ms total)
T182C 002:021 JLINK_WriteReg(MSP, 0x20000800)  returns 0x00 (0000ms, 1459ms total)
T182C 002:021 JLINK_WriteReg(PSP, 0x20000800)  returns 0x00 (0000ms, 1459ms total)
T182C 002:021 JLINK_WriteReg(CFBP, 0x00000000)  returns 0x00 (0000ms, 1459ms total)
T182C 002:021 JLINK_SetBPEx(Addr = 0x20000000, Type = 0xFFFFFFF2)  returns 0x00000005 (0000ms, 1459ms total)
T182C 002:021 JLINK_Go() >0x1F0 JTAG> >0x1F0 JTAG> >0x1F0 JTAG> >0x1F0 JTAG> >0x1F0 JTAG> >0x1F0 JTAG> >0x310 JTAG> >0x218 JTAG> >0x218 JTAG> >0x218 JTAG> >0x240 JTAG> >0x240 JTAG> (0024ms, 1459ms total)
T182C 002:045 JLINK_IsHalted() >0x198 JTAG>  returns FALSE (0003ms, 1483ms total)
T182C 002:098 JLINK_IsHalted() >0x198 JTAG>  returns FALSE (0001ms, 1483ms total)
T182C 002:149 JLINK_IsHalted() >0x198 JTAG>  returns FALSE (0001ms, 1483ms total)
T182C 002:200 JLINK_IsHalted() >0x198 JTAG>  returns FALSE (0001ms, 1483ms total)
T182C 002:251 JLINK_IsHalted() >0x198 JTAG>  returns FALSE (0001ms, 1483ms total)
T182C 002:302 JLINK_IsHalted() >0x198 JTAG>  returns FALSE (0001ms, 1483ms total)
T182C 002:353 JLINK_IsHalted() >0x198 JTAG>  returns FALSE (0003ms, 1483ms total)
T182C 002:406 JLINK_IsHalted() >0x198 JTAG>  returns FALSE (0001ms, 1483ms total)
T182C 002:457 JLINK_IsHalted() >0x198 JTAG> >0x17A8 JTAG> >0x1F0 JTAG>  returns TRUE (0014ms, 1483ms total)
T182C 002:471 JLINK_ReadReg(R15)  returns 0x20000000 (0000ms, 1483ms total)
T182C 002:471 JLINK_ClrBPEx(BPHandle = 0x00000005)  returns 0x00 (0000ms, 1483ms total)
T182C 002:471 JLINK_ReadReg(R0)  returns 0x00000000 (0000ms, 1483ms total)
T182C 002:471 JLINK_WriteReg(R0, 0x08008000)  returns 0x00 (0000ms, 1483ms total)
T182C 002:471 JLINK_WriteReg(R1, 0x00004000)  returns 0x00 (0000ms, 1483ms total)
T182C 002:471 JLINK_WriteReg(R2, 0x000000FF)  returns 0x00 (0000ms, 1483ms total)
T182C 002:471 JLINK_WriteReg(R3, 0x00000000)  returns 0x00 (0000ms, 1483ms total)
T182C 002:471 JLINK_WriteReg(R4, 0x00000000)  returns 0x00 (0000ms, 1483ms total)
T182C 002:471 JLINK_WriteReg(R5, 0x00000000)  returns 0x00 (0000ms, 1483ms total)
T182C 002:472 JLINK_WriteReg(R6, 0x00000000)  returns 0x00 (0000ms, 1483ms total)
T182C 002:472 JLINK_WriteReg(R7, 0x00000000)  returns 0x00 (0000ms, 1483ms total)
T182C 002:472 JLINK_WriteReg(R8, 0x00000000)  returns 0x00 (0000ms, 1483ms total)
T182C 002:472 JLINK_WriteReg(R9, 0x2000017C)  returns 0x00 (0000ms, 1483ms total)
T182C 002:472 JLINK_WriteReg(R10, 0x00000000)  returns 0x00 (0000ms, 1483ms total)
T182C 002:472 JLINK_WriteReg(R11, 0x00000000)  returns 0x00 (0000ms, 1483ms total)
T182C 002:472 JLINK_WriteReg(R12, 0x00000000)  returns 0x00 (0000ms, 1483ms total)
T182C 002:472 JLINK_WriteReg(R13, 0x20000800)  returns 0x00 (0000ms, 1483ms total)
T182C 002:472 JLINK_WriteReg(R14, 0x20000001)  returns 0x00 (0000ms, 1483ms total)
T182C 002:472 JLINK_WriteReg(R15, 0x20000020)  returns 0x00 (0000ms, 1483ms total)
T182C 002:472 JLINK_WriteReg(XPSR, 0x01000000)  returns 0x00 (0000ms, 1483ms total)
T182C 002:472 JLINK_WriteReg(MSP, 0x20000800)  returns 0x00 (0000ms, 1483ms total)
T182C 002:472 JLINK_WriteReg(PSP, 0x20000800)  returns 0x00 (0000ms, 1483ms total)
T182C 002:472 JLINK_WriteReg(CFBP, 0x00000000)  returns 0x00 (0000ms, 1483ms total)
T182C 002:472 JLINK_SetBPEx(Addr = 0x20000000, Type = 0xFFFFFFF2)  returns 0x00000006 (0000ms, 1483ms total)
T182C 002:472 JLINK_Go() >0x1F0 JTAG> >0x1F0 JTAG> >0x1F0 JTAG> >0x1F0 JTAG> >0x1F0 JTAG> >0x1F0 JTAG> >0x310 JTAG> >0x218 JTAG> >0x218 JTAG> >0x218 JTAG> >0x218 JTAG> >0x218 JTAG> >0x218 JTAG> >0x240 JTAG> >0x240 JTAG> (0030ms, 1483ms total)
T182C 002:502 JLINK_IsHalted() >0x198 JTAG> >0x17A8 JTAG> >0x1F0 JTAG>  returns TRUE (0015ms, 1513ms total)
T182C 002:517 JLINK_ReadReg(R15)  returns 0x20000000 (0000ms, 1513ms total)
T182C 002:517 JLINK_ClrBPEx(BPHandle = 0x00000006)  returns 0x00 (0000ms, 1513ms total)
T182C 002:517 JLINK_ReadReg(R0)  returns 0x00000001 (0000ms, 1513ms total)
T182C 002:517 JLINK_WriteReg(R0, 0x08008000)  returns 0x00 (0000ms, 1513ms total)
T182C 002:517 JLINK_WriteReg(R1, 0x00004000)  returns 0x00 (0000ms, 1513ms total)
T182C 002:517 JLINK_WriteReg(R2, 0x000000FF)  returns 0x00 (0000ms, 1513ms total)
T182C 002:517 JLINK_WriteReg(R3, 0x00000000)  returns 0x00 (0000ms, 1513ms total)
T182C 002:517 JLINK_WriteReg(R4, 0x00000000)  returns 0x00 (0000ms, 1513ms total)
T182C 002:517 JLINK_WriteReg(R5, 0x00000000)  returns 0x00 (0000ms, 1513ms total)
T182C 002:517 JLINK_WriteReg(R6, 0x00000000)  returns 0x00 (0000ms, 1513ms total)
T182C 002:517 JLINK_WriteReg(R7, 0x00000000)  returns 0x00 (0000ms, 1513ms total)
T182C 002:517 JLINK_WriteReg(R8, 0x00000000)  returns 0x00 (0000ms, 1513ms total)
T182C 002:517 JLINK_WriteReg(R9, 0x2000017C)  returns 0x00 (0000ms, 1513ms total)
T182C 002:517 JLINK_WriteReg(R10, 0x00000000)  returns 0x00 (0000ms, 1513ms total)
T182C 002:517 JLINK_WriteReg(R11, 0x00000000)  returns 0x00 (0000ms, 1513ms total)
T182C 002:517 JLINK_WriteReg(R12, 0x00000000)  returns 0x00 (0000ms, 1513ms total)
T182C 002:517 JLINK_WriteReg(R13, 0x20000800)  returns 0x00 (0000ms, 1513ms total)
T182C 002:517 JLINK_WriteReg(R14, 0x20000001)  returns 0x00 (0000ms, 1513ms total)
T182C 002:517 JLINK_WriteReg(R15, 0x200000BC)  returns 0x00 (0000ms, 1513ms total)
T182C 002:517 JLINK_WriteReg(XPSR, 0x01000000)  returns 0x00 (0000ms, 1513ms total)
T182C 002:517 JLINK_WriteReg(MSP, 0x20000800)  returns 0x00 (0000ms, 1513ms total)
T182C 002:517 JLINK_WriteReg(PSP, 0x20000800)  returns 0x00 (0000ms, 1513ms total)
T182C 002:517 JLINK_WriteReg(CFBP, 0x00000000)  returns 0x00 (0000ms, 1513ms total)
T182C 002:517 JLINK_SetBPEx(Addr = 0x20000000, Type = 0xFFFFFFF2)  returns 0x00000007 (0000ms, 1513ms total)
T182C 002:517 JLINK_Go() >0x1F0 JTAG> >0x1F0 JTAG> >0x1F0 JTAG> >0x1F0 JTAG> >0x1F0 JTAG> >0x1F0 JTAG> >0x310 JTAG> >0x218 JTAG> >0x218 JTAG> >0x218 JTAG> >0x240 JTAG> >0x240 JTAG> (0035ms, 1513ms total)
T182C 002:552 JLINK_IsHalted() >0x198 JTAG>  returns FALSE (0002ms, 1548ms total)
T182C 002:604 JLINK_IsHalted() >0x198 JTAG>  returns FALSE (0001ms, 1548ms total)
T182C 002:656 JLINK_IsHalted() >0x198 JTAG>  returns FALSE (0002ms, 1548ms total)
T182C 002:708 JLINK_IsHalted() >0x198 JTAG>  returns FALSE (0001ms, 1548ms total)
T182C 002:759 JLINK_IsHalted() >0x198 JTAG>  returns FALSE (0002ms, 1548ms total)
T182C 002:811 JLINK_IsHalted() >0x198 JTAG>  returns FALSE (0002ms, 1548ms total)
T182C 002:863 JLINK_IsHalted() >0x198 JTAG>  returns FALSE (0002ms, 1548ms total)
T182C 002:915 JLINK_IsHalted() >0x198 JTAG>  returns FALSE (0001ms, 1548ms total)
T182C 002:966 JLINK_IsHalted() >0x198 JTAG> >0x17A8 JTAG> >0x1F0 JTAG>  returns TRUE (0015ms, 1548ms total)
T182C 002:981 JLINK_ReadReg(R15)  returns 0x20000000 (0001ms, 1548ms total)
T182C 002:982 JLINK_ClrBPEx(BPHandle = 0x00000007)  returns 0x00 (0000ms, 1549ms total)
T182C 002:982 JLINK_ReadReg(R0)  returns 0x00000000 (0000ms, 1549ms total)
T182C 002:983 JLINK_WriteReg(R0, 0x0800C000)  returns 0x00 (0000ms, 1549ms total)
T182C 002:983 JLINK_WriteReg(R1, 0x00004000)  returns 0x00 (0000ms, 1549ms total)
T182C 002:983 JLINK_WriteReg(R2, 0x000000FF)  returns 0x00 (0000ms, 1549ms total)
T182C 002:983 JLINK_WriteReg(R3, 0x00000000)  returns 0x00 (0000ms, 1549ms total)
T182C 002:983 JLINK_WriteReg(R4, 0x00000000)  returns 0x00 (0000ms, 1549ms total)
T182C 002:983 JLINK_WriteReg(R5, 0x00000000)  returns 0x00 (0000ms, 1549ms total)
T182C 002:983 JLINK_WriteReg(R6, 0x00000000)  returns 0x00 (0000ms, 1549ms total)
T182C 002:983 JLINK_WriteReg(R7, 0x00000000)  returns 0x00 (0000ms, 1549ms total)
T182C 002:983 JLINK_WriteReg(R8, 0x00000000)  returns 0x00 (0000ms, 1549ms total)
T182C 002:983 JLINK_WriteReg(R9, 0x2000017C)  returns 0x00 (0000ms, 1549ms total)
T182C 002:983 JLINK_WriteReg(R10, 0x00000000)  returns 0x00 (0000ms, 1549ms total)
T182C 002:983 JLINK_WriteReg(R11, 0x00000000)  returns 0x00 (0000ms, 1549ms total)
T182C 002:983 JLINK_WriteReg(R12, 0x00000000)  returns 0x00 (0000ms, 1549ms total)
T182C 002:983 JLINK_WriteReg(R13, 0x20000800)  returns 0x00 (0001ms, 1549ms total)
T182C 002:984 JLINK_WriteReg(R14, 0x20000001)  returns 0x00 (0000ms, 1550ms total)
T182C 002:984 JLINK_WriteReg(R15, 0x20000020)  returns 0x00 (0000ms, 1550ms total)
T182C 002:984 JLINK_WriteReg(XPSR, 0x01000000)  returns 0x00 (0000ms, 1550ms total)
T182C 002:984 JLINK_WriteReg(MSP, 0x20000800)  returns 0x00 (0000ms, 1550ms total)
T182C 002:984 JLINK_WriteReg(PSP, 0x20000800)  returns 0x00 (0000ms, 1550ms total)
T182C 002:984 JLINK_WriteReg(CFBP, 0x00000000)  returns 0x00 (0000ms, 1550ms total)
T182C 002:984 JLINK_SetBPEx(Addr = 0x20000000, Type = 0xFFFFFFF2)  returns 0x00000008 (0000ms, 1550ms total)
T182C 002:984 JLINK_Go() >0x1F0 JTAG> >0x1F0 JTAG> >0x1F0 JTAG> >0x1F0 JTAG> >0x1F0 JTAG> >0x1F0 JTAG> >0x310 JTAG> >0x218 JTAG> >0x218 JTAG> >0x218 JTAG> >0x218 JTAG> >0x218 JTAG> >0x218 JTAG> >0x240 JTAG> >0x240 JTAG> (0033ms, 1550ms total)
T182C 003:017 JLINK_IsHalted() >0x198 JTAG> >0x17A8 JTAG> >0x1F0 JTAG>  returns TRUE (0016ms, 1583ms total)
T182C 003:034 JLINK_ReadReg(R15)  returns 0x20000000 (0000ms, 1583ms total)
T182C 003:034 JLINK_ClrBPEx(BPHandle = 0x00000008)  returns 0x00 (0000ms, 1583ms total)
T182C 003:034 JLINK_ReadReg(R0)  returns 0x00000001 (0000ms, 1583ms total)
T182C 003:034 JLINK_WriteReg(R0, 0x0800C000)  returns 0x00 (0000ms, 1583ms total)
T182C 003:034 JLINK_WriteReg(R1, 0x00004000)  returns 0x00 (0000ms, 1583ms total)
T182C 003:034 JLINK_WriteReg(R2, 0x000000FF)  returns 0x00 (0000ms, 1583ms total)
T182C 003:034 JLINK_WriteReg(R3, 0x00000000)  returns 0x00 (0001ms, 1583ms total)
T182C 003:035 JLINK_WriteReg(R4, 0x00000000)  returns 0x00 (0000ms, 1584ms total)
T182C 003:035 JLINK_WriteReg(R5, 0x00000000)  returns 0x00 (0000ms, 1584ms total)
T182C 003:035 JLINK_WriteReg(R6, 0x00000000)  returns 0x00 (0000ms, 1584ms total)
T182C 003:035 JLINK_WriteReg(R7, 0x00000000)  returns 0x00 (0000ms, 1584ms total)
T182C 003:035 JLINK_WriteReg(R8, 0x00000000)  returns 0x00 (0000ms, 1584ms total)
T182C 003:035 JLINK_WriteReg(R9, 0x2000017C)  returns 0x00 (0000ms, 1584ms total)
T182C 003:035 JLINK_WriteReg(R10, 0x00000000)  returns 0x00 (0000ms, 1584ms total)
T182C 003:035 JLINK_WriteReg(R11, 0x00000000)  returns 0x00 (0000ms, 1584ms total)
T182C 003:035 JLINK_WriteReg(R12, 0x00000000)  returns 0x00 (0000ms, 1584ms total)
T182C 003:035 JLINK_WriteReg(R13, 0x20000800)  returns 0x00 (0000ms, 1584ms total)
T182C 003:035 JLINK_WriteReg(R14, 0x20000001)  returns 0x00 (0000ms, 1584ms total)
T182C 003:035 JLINK_WriteReg(R15, 0x200000BC)  returns 0x00 (0000ms, 1584ms total)
T182C 003:035 JLINK_WriteReg(XPSR, 0x01000000)  returns 0x00 (0000ms, 1584ms total)
T182C 003:035 JLINK_WriteReg(MSP, 0x20000800)  returns 0x00 (0000ms, 1584ms total)
T182C 003:035 JLINK_WriteReg(PSP, 0x20000800)  returns 0x00 (0000ms, 1584ms total)
T182C 003:035 JLINK_WriteReg(CFBP, 0x00000000)  returns 0x00 (0000ms, 1584ms total)
T182C 003:036 JLINK_SetBPEx(Addr = 0x20000000, Type = 0xFFFFFFF2)  returns 0x00000009 (0000ms, 1585ms total)
T182C 003:036 JLINK_Go() >0x1F0 JTAG> >0x1F0 JTAG> >0x1F0 JTAG> >0x1F0 JTAG> >0x1F0 JTAG> >0x1F0 JTAG> >0x310 JTAG> >0x218 JTAG> >0x218 JTAG> >0x218 JTAG> >0x240 JTAG> >0x240 JTAG> (0026ms, 1585ms total)
T182C 003:062 JLINK_IsHalted() >0x198 JTAG>  returns FALSE (0003ms, 1611ms total)
T182C 003:115 JLINK_IsHalted() >0x198 JTAG>  returns FALSE (0001ms, 1611ms total)
T182C 003:166 JLINK_IsHalted() >0x198 JTAG>  returns FALSE (0002ms, 1611ms total)
T182C 003:218 JLINK_IsHalted() >0x198 JTAG>  returns FALSE (0004ms, 1611ms total)
T182C 003:272 JLINK_IsHalted() >0x198 JTAG>  returns FALSE (0002ms, 1611ms total)
T182C 003:324 JLINK_IsHalted() >0x198 JTAG>  returns FALSE (0002ms, 1611ms total)
T182C 003:376 JLINK_IsHalted() >0x198 JTAG>  returns FALSE (0001ms, 1611ms total)
T182C 003:427 JLINK_IsHalted() >0x198 JTAG>  returns FALSE (0002ms, 1611ms total)
T182C 003:479 JLINK_IsHalted() >0x198 JTAG> >0x17A8 JTAG> >0x1F0 JTAG>  returns TRUE (0018ms, 1611ms total)
T182C 003:497 JLINK_ReadReg(R15)  returns 0x20000000 (0000ms, 1611ms total)
T182C 003:497 JLINK_ClrBPEx(BPHandle = 0x00000009)  returns 0x00 (0000ms, 1611ms total)
T182C 003:497 JLINK_ReadReg(R0)  returns 0x00000000 (0000ms, 1611ms total)
T182C 003:497 JLINK_WriteReg(R0, 0x08010000)  returns 0x00 (0000ms, 1611ms total)
T182C 003:497 JLINK_WriteReg(R1, 0x00010000)  returns 0x00 (0000ms, 1611ms total)
T182C 003:497 JLINK_WriteReg(R2, 0x000000FF)  returns 0x00 (0000ms, 1611ms total)
T182C 003:497 JLINK_WriteReg(R3, 0x00000000)  returns 0x00 (0000ms, 1611ms total)
T182C 003:497 JLINK_WriteReg(R4, 0x00000000)  returns 0x00 (0000ms, 1611ms total)
T182C 003:497 JLINK_WriteReg(R5, 0x00000000)  returns 0x00 (0000ms, 1611ms total)
T182C 003:497 JLINK_WriteReg(R6, 0x00000000)  returns 0x00 (0000ms, 1611ms total)
T182C 003:497 JLINK_WriteReg(R7, 0x00000000)  returns 0x00 (0000ms, 1611ms total)
T182C 003:497 JLINK_WriteReg(R8, 0x00000000)  returns 0x00 (0000ms, 1611ms total)
T182C 003:497 JLINK_WriteReg(R9, 0x2000017C)  returns 0x00 (0000ms, 1611ms total)
T182C 003:497 JLINK_WriteReg(R10, 0x00000000)  returns 0x00 (0000ms, 1611ms total)
T182C 003:497 JLINK_WriteReg(R11, 0x00000000)  returns 0x00 (0000ms, 1611ms total)
T182C 003:497 JLINK_WriteReg(R12, 0x00000000)  returns 0x00 (0000ms, 1611ms total)
T182C 003:497 JLINK_WriteReg(R13, 0x20000800)  returns 0x00 (0000ms, 1611ms total)
T182C 003:497 JLINK_WriteReg(R14, 0x20000001)  returns 0x00 (0000ms, 1611ms total)
T182C 003:497 JLINK_WriteReg(R15, 0x20000020)  returns 0x00 (0000ms, 1611ms total)
T182C 003:497 JLINK_WriteReg(XPSR, 0x01000000)  returns 0x00 (0000ms, 1611ms total)
T182C 003:497 JLINK_WriteReg(MSP, 0x20000800)  returns 0x00 (0000ms, 1611ms total)
T182C 003:497 JLINK_WriteReg(PSP, 0x20000800)  returns 0x00 (0000ms, 1611ms total)
T182C 003:497 JLINK_WriteReg(CFBP, 0x00000000)  returns 0x00 (0000ms, 1611ms total)
T182C 003:497 JLINK_SetBPEx(Addr = 0x20000000, Type = 0xFFFFFFF2)  returns 0x0000000A (0000ms, 1611ms total)
T182C 003:497 JLINK_Go() >0x1F0 JTAG> >0x1F0 JTAG> >0x1F0 JTAG> >0x1F0 JTAG> >0x1F0 JTAG> >0x1F0 JTAG> >0x310 JTAG> >0x218 JTAG> >0x218 JTAG> >0x218 JTAG> >0x218 JTAG> >0x218 JTAG> >0x218 JTAG> >0x240 JTAG> >0x240 JTAG> (0039ms, 1611ms total)
T182C 003:536 JLINK_IsHalted() >0x198 JTAG> >0x17A8 JTAG> >0x1F0 JTAG>  returns TRUE (0015ms, 1650ms total)
T182C 003:551 JLINK_ReadReg(R15)  returns 0x20000000 (0000ms, 1650ms total)
T182C 003:551 JLINK_ClrBPEx(BPHandle = 0x0000000A)  returns 0x00 (0000ms, 1650ms total)
T182C 003:551 JLINK_ReadReg(R0)  returns 0x00000001 (0000ms, 1650ms total)
T182C 003:551 JLINK_WriteReg(R0, 0x08010000)  returns 0x00 (0000ms, 1650ms total)
T182C 003:551 JLINK_WriteReg(R1, 0x00010000)  returns 0x00 (0000ms, 1650ms total)
T182C 003:551 JLINK_WriteReg(R2, 0x000000FF)  returns 0x00 (0000ms, 1650ms total)
T182C 003:551 JLINK_WriteReg(R3, 0x00000000)  returns 0x00 (0000ms, 1650ms total)
T182C 003:551 JLINK_WriteReg(R4, 0x00000000)  returns 0x00 (0000ms, 1650ms total)
T182C 003:551 JLINK_WriteReg(R5, 0x00000000)  returns 0x00 (0000ms, 1650ms total)
T182C 003:551 JLINK_WriteReg(R6, 0x00000000)  returns 0x00 (0000ms, 1650ms total)
T182C 003:551 JLINK_WriteReg(R7, 0x00000000)  returns 0x00 (0000ms, 1650ms total)
T182C 003:551 JLINK_WriteReg(R8, 0x00000000)  returns 0x00 (0000ms, 1650ms total)
T182C 003:551 JLINK_WriteReg(R9, 0x2000017C)  returns 0x00 (0000ms, 1650ms total)
T182C 003:551 JLINK_WriteReg(R10, 0x00000000)  returns 0x00 (0000ms, 1650ms total)
T182C 003:551 JLINK_WriteReg(R11, 0x00000000)  returns 0x00 (0000ms, 1650ms total)
T182C 003:551 JLINK_WriteReg(R12, 0x00000000)  returns 0x00 (0000ms, 1650ms total)
T182C 003:551 JLINK_WriteReg(R13, 0x20000800)  returns 0x00 (0000ms, 1650ms total)
T182C 003:551 JLINK_WriteReg(R14, 0x20000001)  returns 0x00 (0000ms, 1650ms total)
T182C 003:551 JLINK_WriteReg(R15, 0x200000BC)  returns 0x00 (0000ms, 1650ms total)
T182C 003:551 JLINK_WriteReg(XPSR, 0x01000000)  returns 0x00 (0000ms, 1650ms total)
T182C 003:551 JLINK_WriteReg(MSP, 0x20000800)  returns 0x00 (0000ms, 1650ms total)
T182C 003:551 JLINK_WriteReg(PSP, 0x20000800)  returns 0x00 (0000ms, 1650ms total)
T182C 003:551 JLINK_WriteReg(CFBP, 0x00000000)  returns 0x00 (0000ms, 1650ms total)
T182C 003:551 JLINK_SetBPEx(Addr = 0x20000000, Type = 0xFFFFFFF2)  returns 0x0000000B (0000ms, 1650ms total)
T182C 003:551 JLINK_Go() >0x1F0 JTAG> >0x1F0 JTAG> >0x1F0 JTAG> >0x1F0 JTAG> >0x1F0 JTAG> >0x1F0 JTAG> >0x310 JTAG> >0x218 JTAG> >0x218 JTAG> >0x218 JTAG> >0x240 JTAG> >0x240 JTAG> (0025ms, 1650ms total)
T182C 003:576 JLINK_IsHalted() >0x198 JTAG>  returns FALSE (0002ms, 1675ms total)
T182C 003:628 JLINK_IsHalted() >0x198 JTAG>  returns FALSE (0002ms, 1675ms total)
T182C 003:680 JLINK_IsHalted() >0x198 JTAG>  returns FALSE (0004ms, 1675ms total)
T182C 003:734 JLINK_IsHalted() >0x198 JTAG>  returns FALSE (0002ms, 1675ms total)
T182C 003:786 JLINK_IsHalted() >0x198 JTAG>  returns FALSE (0002ms, 1675ms total)
T182C 003:838 JLINK_IsHalted() >0x198 JTAG>  returns FALSE (0002ms, 1675ms total)
T182C 003:890 JLINK_IsHalted() >0x198 JTAG>  returns FALSE (0002ms, 1675ms total)
T182C 003:942 JLINK_IsHalted() >0x198 JTAG>  returns FALSE (0002ms, 1675ms total)
T182C 003:995 JLINK_IsHalted() >0x198 JTAG>  returns FALSE (0002ms, 1675ms total)
T182C 004:048 JLINK_IsHalted() >0x198 JTAG>  returns FALSE (0002ms, 1675ms total)
T182C 004:103 JLINK_IsHalted() >0x198 JTAG>  returns FALSE (0004ms, 1675ms total)
T182C 004:157 JLINK_IsHalted() >0x198 JTAG>  returns FALSE (0002ms, 1675ms total)
T182C 004:209 JLINK_IsHalted() >0x198 JTAG>  returns FALSE (0001ms, 1675ms total)
T182C 004:261 JLINK_IsHalted() >0x198 JTAG>  returns FALSE (0002ms, 1675ms total)
T182C 004:313 JLINK_IsHalted() >0x198 JTAG>  returns FALSE (0002ms, 1675ms total)
T182C 004:365 JLINK_IsHalted() >0x198 JTAG>  returns FALSE (0002ms, 1675ms total)
T182C 004:417 JLINK_IsHalted() >0x198 JTAG>  returns FALSE (0001ms, 1675ms total)
T182C 004:469 JLINK_IsHalted() >0x198 JTAG>  returns FALSE (0001ms, 1675ms total)
T182C 004:523 JLINK_IsHalted() >0x198 JTAG>  returns FALSE (0002ms, 1675ms total)
T182C 004:575 JLINK_IsHalted() >0x198 JTAG>  returns FALSE (0001ms, 1675ms total)
T182C 004:626 JLINK_IsHalted() >0x198 JTAG>  returns FALSE (0001ms, 1675ms total)
T182C 004:677 JLINK_IsHalted() >0x198 JTAG>  returns FALSE (0001ms, 1675ms total)
T182C 004:728 JLINK_IsHalted() >0x198 JTAG> >0x17A8 JTAG> >0x1F0 JTAG>  returns TRUE (0015ms, 1675ms total)
T182C 004:743 JLINK_ReadReg(R15)  returns 0x20000000 (0000ms, 1675ms total)
T182C 004:743 JLINK_ClrBPEx(BPHandle = 0x0000000B)  returns 0x00 (0000ms, 1675ms total)
T182C 004:743 JLINK_ReadReg(R0)  returns 0x00000000 (0000ms, 1675ms total)
T182C 004:743 JLINK_WriteReg(R0, 0x08020000)  returns 0x00 (0000ms, 1675ms total)
T182C 004:743 JLINK_WriteReg(R1, 0x00020000)  returns 0x00 (0000ms, 1675ms total)
T182C 004:743 JLINK_WriteReg(R2, 0x000000FF)  returns 0x00 (0000ms, 1675ms total)
T182C 004:743 JLINK_WriteReg(R3, 0x00000000)  returns 0x00 (0000ms, 1675ms total)
T182C 004:743 JLINK_WriteReg(R4, 0x00000000)  returns 0x00 (0000ms, 1675ms total)
T182C 004:743 JLINK_WriteReg(R5, 0x00000000)  returns 0x00 (0000ms, 1675ms total)
T182C 004:743 JLINK_WriteReg(R6, 0x00000000)  returns 0x00 (0000ms, 1675ms total)
T182C 004:743 JLINK_WriteReg(R7, 0x00000000)  returns 0x00 (0000ms, 1675ms total)
T182C 004:743 JLINK_WriteReg(R8, 0x00000000)  returns 0x00 (0000ms, 1675ms total)
T182C 004:743 JLINK_WriteReg(R9, 0x2000017C)  returns 0x00 (0000ms, 1675ms total)
T182C 004:743 JLINK_WriteReg(R10, 0x00000000)  returns 0x00 (0000ms, 1675ms total)
T182C 004:743 JLINK_WriteReg(R11, 0x00000000)  returns 0x00 (0000ms, 1675ms total)
T182C 004:743 JLINK_WriteReg(R12, 0x00000000)  returns 0x00 (0000ms, 1675ms total)
T182C 004:743 JLINK_WriteReg(R13, 0x20000800)  returns 0x00 (0001ms, 1675ms total)
T182C 004:744 JLINK_WriteReg(R14, 0x20000001)  returns 0x00 (0000ms, 1676ms total)
T182C 004:744 JLINK_WriteReg(R15, 0x20000020)  returns 0x00 (0000ms, 1676ms total)
T182C 004:744 JLINK_WriteReg(XPSR, 0x01000000)  returns 0x00 (0000ms, 1676ms total)
T182C 004:744 JLINK_WriteReg(MSP, 0x20000800)  returns 0x00 (0000ms, 1676ms total)
T182C 004:744 JLINK_WriteReg(PSP, 0x20000800)  returns 0x00 (0000ms, 1676ms total)
T182C 004:744 JLINK_WriteReg(CFBP, 0x00000000)  returns 0x00 (0000ms, 1676ms total)
T182C 004:744 JLINK_SetBPEx(Addr = 0x20000000, Type = 0xFFFFFFF2)  returns 0x0000000C (0000ms, 1676ms total)
T182C 004:744 JLINK_Go() >0x1F0 JTAG> >0x1F0 JTAG> >0x1F0 JTAG> >0x1F0 JTAG> >0x1F0 JTAG> >0x1F0 JTAG> >0x310 JTAG> >0x218 JTAG> >0x218 JTAG> >0x218 JTAG> >0x218 JTAG> >0x218 JTAG> >0x218 JTAG> >0x240 JTAG> >0x240 JTAG> (0031ms, 1676ms total)
T182C 004:775 JLINK_IsHalted() >0x198 JTAG> >0x17A8 JTAG> >0x1F0 JTAG>  returns TRUE (0014ms, 1707ms total)
T182C 004:789 JLINK_ReadReg(R15)  returns 0x20000000 (0000ms, 1707ms total)
T182C 004:789 JLINK_ClrBPEx(BPHandle = 0x0000000C)  returns 0x00 (0001ms, 1707ms total)
T182C 004:790 JLINK_ReadReg(R0)  returns 0x00000001 (0000ms, 1708ms total)
T182C 004:790 JLINK_WriteReg(R0, 0x08020000)  returns 0x00 (0000ms, 1708ms total)
T182C 004:790 JLINK_WriteReg(R1, 0x00020000)  returns 0x00 (0000ms, 1708ms total)
T182C 004:790 JLINK_WriteReg(R2, 0x000000FF)  returns 0x00 (0000ms, 1708ms total)
T182C 004:790 JLINK_WriteReg(R3, 0x00000000)  returns 0x00 (0000ms, 1708ms total)
T182C 004:790 JLINK_WriteReg(R4, 0x00000000)  returns 0x00 (0000ms, 1708ms total)
T182C 004:790 JLINK_WriteReg(R5, 0x00000000)  returns 0x00 (0000ms, 1708ms total)
T182C 004:790 JLINK_WriteReg(R6, 0x00000000)  returns 0x00 (0000ms, 1708ms total)
T182C 004:790 JLINK_WriteReg(R7, 0x00000000)  returns 0x00 (0000ms, 1708ms total)
T182C 004:790 JLINK_WriteReg(R8, 0x00000000)  returns 0x00 (0000ms, 1708ms total)
T182C 004:790 JLINK_WriteReg(R9, 0x2000017C)  returns 0x00 (0000ms, 1708ms total)
T182C 004:790 JLINK_WriteReg(R10, 0x00000000)  returns 0x00 (0000ms, 1708ms total)
T182C 004:790 JLINK_WriteReg(R11, 0x00000000)  returns 0x00 (0000ms, 1708ms total)
T182C 004:790 JLINK_WriteReg(R12, 0x00000000)  returns 0x00 (0000ms, 1708ms total)
T182C 004:790 JLINK_WriteReg(R13, 0x20000800)  returns 0x00 (0000ms, 1708ms total)
T182C 004:790 JLINK_WriteReg(R14, 0x20000001)  returns 0x00 (0000ms, 1708ms total)
T182C 004:790 JLINK_WriteReg(R15, 0x200000BC)  returns 0x00 (0000ms, 1708ms total)
T182C 004:790 JLINK_WriteReg(XPSR, 0x01000000)  returns 0x00 (0000ms, 1708ms total)
T182C 004:790 JLINK_WriteReg(MSP, 0x20000800)  returns 0x00 (0000ms, 1708ms total)
T182C 004:790 JLINK_WriteReg(PSP, 0x20000800)  returns 0x00 (0000ms, 1708ms total)
T182C 004:790 JLINK_WriteReg(CFBP, 0x00000000)  returns 0x00 (0000ms, 1708ms total)
T182C 004:790 JLINK_SetBPEx(Addr = 0x20000000, Type = 0xFFFFFFF2)  returns 0x0000000D (0000ms, 1708ms total)
T182C 004:790 JLINK_Go() >0x1F0 JTAG> >0x1F0 JTAG> >0x1F0 JTAG> >0x1F0 JTAG> >0x1F0 JTAG> >0x1F0 JTAG> >0x310 JTAG> >0x218 JTAG> >0x218 JTAG> >0x218 JTAG> >0x240 JTAG> >0x240 JTAG> (0023ms, 1708ms total)
T182C 004:813 JLINK_IsHalted() >0x198 JTAG>  returns FALSE (0002ms, 1731ms total)
T182C 004:865 JLINK_IsHalted() >0x198 JTAG>  returns FALSE (0001ms, 1731ms total)
T182C 004:916 JLINK_IsHalted() >0x198 JTAG>  returns FALSE (0001ms, 1731ms total)
T182C 004:967 JLINK_IsHalted() >0x198 JTAG>  returns FALSE (0001ms, 1731ms total)
T182C 005:018 JLINK_IsHalted() >0x198 JTAG>  returns FALSE (0001ms, 1731ms total)
T182C 005:069 JLINK_IsHalted() >0x198 JTAG>  returns FALSE (0001ms, 1731ms total)
T182C 005:120 JLINK_IsHalted() >0x198 JTAG>  returns FALSE (0002ms, 1731ms total)
T182C 005:172 JLINK_IsHalted() >0x198 JTAG>  returns FALSE (0001ms, 1731ms total)
T182C 005:223 JLINK_IsHalted() >0x198 JTAG>  returns FALSE (0001ms, 1731ms total)
T182C 005:274 JLINK_IsHalted() >0x198 JTAG>  returns FALSE (0001ms, 1731ms total)
T182C 005:325 JLINK_IsHalted() >0x198 JTAG>  returns FALSE (0001ms, 1731ms total)
T182C 005:376 JLINK_IsHalted() >0x198 JTAG>  returns FALSE (0001ms, 1731ms total)
T182C 005:427 JLINK_IsHalted() >0x198 JTAG>  returns FALSE (0003ms, 1731ms total)
T182C 005:480 JLINK_IsHalted() >0x198 JTAG>  returns FALSE (0001ms, 1731ms total)
T182C 005:531 JLINK_IsHalted() >0x198 JTAG>  returns FALSE (0001ms, 1731ms total)
T182C 005:582 JLINK_IsHalted() >0x198 JTAG>  returns FALSE (0001ms, 1731ms total)
T182C 005:633 JLINK_IsHalted() >0x198 JTAG>  returns FALSE (0001ms, 1731ms total)
T182C 005:684 JLINK_IsHalted() >0x198 JTAG>  returns FALSE (0001ms, 1731ms total)
T182C 005:735 JLINK_IsHalted() >0x198 JTAG>  returns FALSE (0001ms, 1731ms total)
T182C 005:786 JLINK_IsHalted() >0x198 JTAG>  returns FALSE (0001ms, 1731ms total)
T182C 005:837 JLINK_IsHalted() >0x198 JTAG>  returns FALSE (0001ms, 1731ms total)
T182C 005:889 JLINK_IsHalted() >0x198 JTAG>  returns FALSE (0001ms, 1731ms total)
T182C 005:940 JLINK_IsHalted() >0x198 JTAG>  returns FALSE (0001ms, 1731ms total)
T182C 005:991 JLINK_IsHalted() >0x198 JTAG>  returns FALSE (0001ms, 1731ms total)
T182C 006:042 JLINK_IsHalted() >0x198 JTAG>  returns FALSE (0001ms, 1731ms total)
T182C 006:093 JLINK_IsHalted() >0x198 JTAG>  returns FALSE (0001ms, 1731ms total)
T182C 006:144 JLINK_IsHalted() >0x198 JTAG>  returns FALSE (0003ms, 1731ms total)
T182C 006:197 JLINK_IsHalted() >0x198 JTAG>  returns FALSE (0001ms, 1731ms total)
T182C 006:248 JLINK_IsHalted() >0x198 JTAG>  returns FALSE (0001ms, 1731ms total)
T182C 006:299 JLINK_IsHalted() >0x198 JTAG>  returns FALSE (0001ms, 1731ms total)
T182C 006:350 JLINK_IsHalted() >0x198 JTAG>  returns FALSE (0001ms, 1731ms total)
T182C 006:401 JLINK_IsHalted() >0x198 JTAG>  returns FALSE (0001ms, 1731ms total)
T182C 006:452 JLINK_IsHalted() >0x198 JTAG>  returns FALSE (0001ms, 1731ms total)
T182C 006:503 JLINK_IsHalted() >0x198 JTAG>  returns FALSE (0001ms, 1731ms total)
T182C 006:554 JLINK_IsHalted() >0x198 JTAG>  returns FALSE (0001ms, 1731ms total)
T182C 006:605 JLINK_IsHalted() >0x198 JTAG>  returns FALSE (0001ms, 1731ms total)
T182C 006:656 JLINK_IsHalted() >0x198 JTAG>  returns FALSE (0002ms, 1731ms total)
T182C 006:708 JLINK_IsHalted() >0x198 JTAG>  returns FALSE (0001ms, 1731ms total)
T182C 006:759 JLINK_IsHalted() >0x198 JTAG>  returns FALSE (0001ms, 1731ms total)
T182C 006:810 JLINK_IsHalted() >0x198 JTAG> >0x17A8 JTAG> >0x1F0 JTAG>  returns TRUE (0014ms, 1731ms total)
T182C 006:824 JLINK_ReadReg(R15)  returns 0x20000000 (0000ms, 1731ms total)
T182C 006:824 JLINK_ClrBPEx(BPHandle = 0x0000000D)  returns 0x00 (0000ms, 1731ms total)
T182C 006:824 JLINK_ReadReg(R0)  returns 0x00000000 (0000ms, 1731ms total)
T182C 006:824 JLINK_WriteReg(R0, 0x08040000)  returns 0x00 (0000ms, 1731ms total)
T182C 006:824 JLINK_WriteReg(R1, 0x00020000)  returns 0x00 (0000ms, 1731ms total)
T182C 006:825 JLINK_WriteReg(R2, 0x000000FF)  returns 0x00 (0000ms, 1732ms total)
T182C 006:825 JLINK_WriteReg(R3, 0x00000000)  returns 0x00 (0000ms, 1732ms total)
T182C 006:825 JLINK_WriteReg(R4, 0x00000000)  returns 0x00 (0000ms, 1732ms total)
T182C 006:825 JLINK_WriteReg(R5, 0x00000000)  returns 0x00 (0000ms, 1732ms total)
T182C 006:825 JLINK_WriteReg(R6, 0x00000000)  returns 0x00 (0000ms, 1732ms total)
T182C 006:825 JLINK_WriteReg(R7, 0x00000000)  returns 0x00 (0000ms, 1732ms total)
T182C 006:825 JLINK_WriteReg(R8, 0x00000000)  returns 0x00 (0000ms, 1732ms total)
T182C 006:825 JLINK_WriteReg(R9, 0x2000017C)  returns 0x00 (0000ms, 1732ms total)
T182C 006:825 JLINK_WriteReg(R10, 0x00000000)  returns 0x00 (0000ms, 1732ms total)
T182C 006:825 JLINK_WriteReg(R11, 0x00000000)  returns 0x00 (0000ms, 1732ms total)
T182C 006:825 JLINK_WriteReg(R12, 0x00000000)  returns 0x00 (0000ms, 1732ms total)
T182C 006:825 JLINK_WriteReg(R13, 0x20000800)  returns 0x00 (0000ms, 1732ms total)
T182C 006:825 JLINK_WriteReg(R14, 0x20000001)  returns 0x00 (0000ms, 1732ms total)
T182C 006:825 JLINK_WriteReg(R15, 0x20000020)  returns 0x00 (0000ms, 1732ms total)
T182C 006:825 JLINK_WriteReg(XPSR, 0x01000000)  returns 0x00 (0000ms, 1732ms total)
T182C 006:825 JLINK_WriteReg(MSP, 0x20000800)  returns 0x00 (0000ms, 1732ms total)
T182C 006:825 JLINK_WriteReg(PSP, 0x20000800)  returns 0x00 (0000ms, 1732ms total)
T182C 006:825 JLINK_WriteReg(CFBP, 0x00000000)  returns 0x00 (0000ms, 1732ms total)
T182C 006:825 JLINK_SetBPEx(Addr = 0x20000000, Type = 0xFFFFFFF2)  returns 0x0000000E (0000ms, 1732ms total)
T182C 006:825 JLINK_Go() >0x1F0 JTAG> >0x1F0 JTAG> >0x1F0 JTAG> >0x1F0 JTAG> >0x1F0 JTAG> >0x1F0 JTAG> >0x310 JTAG> >0x218 JTAG> >0x218 JTAG> >0x218 JTAG> >0x218 JTAG> >0x218 JTAG> >0x218 JTAG> >0x240 JTAG> >0x240 JTAG> (0030ms, 1732ms total)
